! Touchstone file from project 4Port_PIFA_SAR
! Exported from HFSS 2017.0.0
! Variables:
!  A = 0.19mm
!  Airbox_dist = 125mm
!  Ant_Shift = -0.0300000000000002mm
!  Antenna_Offset = 3mm
!  Antenna_Trace_Width = 1.48mm
!  Feed_Length = 0.148mm
!  Feed_Offset = -5.23mm
!  Feed_Width = 1.48mm
!  I1 = 1mA
!  I2 = -1.11mA
!  L1 = 5.5mm
!  L2 = 61.595mm
!  L3 = 10mm
!  L4 = 54.25mm
!  Length1 = 25.5mm
!  Length2 = 6.1mm
!  Offset = 18.5mm
!  VirtualObject_dist = 12.4914mm
!  s = 1.5mm
!  subH = 62mil
!  subX = 49.4mm
!  subY = 98.8mm
# GHZ S MA R 50.000000
! Terminal data exported
! Port[1] = Feed1_T1
! Port[2] = Feed2_T1
! Port[3] = Feed3_T1
! Port[4] = Feed4_T1
1.5              0.897571763637585 -133.279433163461 0.0322577310243884 3.3982935408381  0.0373033517772413 -144.228612450803 0.0667895234673385 -88.1328099837644 
                0.0322577310238862 3.39829353997733 0.897993895197842 -133.091866710636 0.0666576770144426 -88.120457481589 0.0372240538686482 -144.117948779213 
                0.0373033517775645 -144.228612452247 0.0666576770156862 -88.1204574811144 0.897968985743245 -133.15373335717 0.0322549192471826 3.72470578028569 
                0.0667895234661038 -88.1328099830802 0.0372240538674686 -144.117948778872 0.0322549192490167 3.72470578155511 0.898002225615051 -133.134241036484 
! Port Impedance50               0                0                0                0                0                0                0                
!               0                0                50               0                0                0                0                0                
!               0                0                0                0                50               0                0                0                
!               0                0                0                0                0                0                50               0                

1.50954773869347 0.895743799085748 -135.164657818379 0.0333863256025607 0.823269344431138 0.0374050739607307 -147.391193255188 0.0683668502221215 -90.713455636532 
                0.0333863256204691 0.823269358233243 0.89618067222553 -134.974170851547 0.0682331508512578 -90.7003248613239 0.0373239019849819 -147.278209792314 
                0.0374050739355668 -147.391193251474 0.068233150857844 -90.7003248630658 0.896140917667743 -135.038678149   0.0333791530704624 1.14107574029097 
                0.0683668502357288 -90.7134556368266 0.0373239020037418 -147.278209795092 0.0333791530669569 1.14107573674139 0.896178765368278 -135.016110113031 
! Port Impedance50               0                0                0                0                0                0                0                
!               0                0                50               0                0                0                0                0                
!               0                0                0                0                50               0                0                0                
!               0                0                0                0                0                0                50               0                

1.51909547738693 0.893782181625514 -137.05004135698 0.0345591723840908 -1.76294226743613 0.0375412883553986 -150.575201164942 0.0699806336628787 -93.2859426317441 
                0.0345591724193095 -1.76294224236887 0.894233380109014 -136.856626009181 0.0698447005905286 -93.2721790907426 0.037458190107545 -150.459872659406 
                0.0375412883079289 -150.57520115815 0.0698447006017118 -93.2721790946265 0.894180052159554 -136.923691536831 0.0345474521216239 -1.45347544994692 
                0.0699806336895924 -93.2859426335553 0.0374581901437712 -150.459872663806 0.0345474521130867 -1.45347545723593 0.894222784547726 -136.897962569168 
! Port Impedance50               0                0                0                0                0                0                0                
!               0                0                50               0                0                0                0                0                
!               0                0                0                0                50               0                0                0                
!               0                0                0                0                0                0                50               0                

1.5286432160804  0.891689946219126 -138.935752897044 0.0357778768122731 -4.36120325658755 0.0377124762832395 -153.780511622764 0.0716320532785107 -95.849821893888 
                0.0357778768635994 -4.36120322332348 0.892155102125174 -138.739392444698 0.0714935018906896 -95.8355437512091 0.0376273958556875 -153.662810298991 
                0.0377124762165298 -153.780511614637 0.0714935019057301 -95.8355437571208 0.892089458807235 -138.80894614574 0.035761410225648 -4.05979926487937 
                0.0716320533165746 -95.8498218976177 0.0376273959069961 -153.662810303772 0.0357614102124168 -4.05979927493236 0.892137332948775 -138.779974547166 
! Port Impedance50               0                0                0                0                0                0                0                
!               0                0                50               0                0                0                0                0                
!               0                0                0                0                50               0                0                0                
!               0                0                0                0                0                0                50               0                

1.53819095477387 0.889469748044518 -140.821988399611 0.0370440825978558 -6.97236834054438 0.0379191391060919 -157.007074280317 0.0733224714479633 -98.4046744628632 
                0.0370440826639853 -6.97236830182294 0.889948547757803 -140.622657818659 0.0731809149500286 -98.3899739030362 0.0378320166795527 -156.886969893185 
                0.0379191390230863 -157.007074272274 0.0731809149682017 -98.3899739108249 0.889871823729056 -140.694641175255 0.0370226596048131 -6.6787407236304 
                0.0733224714956178 -98.404674468783 0.0378320167436535 -156.886969897357 0.0370226595872551 -6.67874073557552 0.889925074838679 -140.662348660283 
! Port Impedance50               0                0                0                0                0                0                0                
!               0                0                50               0                0                0                0                0                
!               0                0                0                0                50               0                0                0                
!               0                0                0                0                0                0                50               0                

1.54773869346734 0.887123835869215 -142.708969880606 0.0383594717126119 -9.5972841281321 0.0381618015129246 -160.254921456929 0.0750534511981268 -100.95011990103 
                0.0383594717921393 -9.59728408636579 0.887616025275519 -142.506636401707 0.0749085022168312 -100.935064680415 0.03807257315408 -160.13238137515 
                0.0381618014164395 -160.254921450086 0.0749085022374344 -100.935064689898 0.887529423461183 -142.581001597175 0.0383328709672698 -9.3111375917792 
                0.0750534512536276 -100.950119909289 0.038072573228781 -160.132381377952 0.0383328709457813 -9.31113760484734 0.887588263084063 -142.545313182501 
! Port Impedance50               0                0                0                0                0                0                0                
!               0                0                50               0                0                0                0                0                
!               0                0                0                0                50               0                0                0                
!               0                0                0                0                0                0                50               0                

1.5572864321608  0.884654026378271 -144.596944601114 0.0397257644120371 -12.236788671766 0.0384410148908823 -163.524176028612 0.0768267738466568 -103.485824973068 
                0.0397257645034586 -12.2367886290444 0.88515941529861 -144.391568260255 0.0766780459382498 -103.470460126597 0.0383496123569453 -163.399165347088 
                0.0384410147836012 -163.5241760238  0.0766780459606107 -103.470460137564 0.885064099809768 -144.468277334492 0.0396937536252961 -11.9578199994821 
                0.076826773908293 -103.485824983701 0.0383496124401565 -163.399165347974 0.0396937536003018 -11.9578200130048 0.885128714235798 -144.429121220331 
! Port Impedance50               0                0                0                0                0                0                0                
!               0                0                50               0                0                0                0                0                
!               0                0                0                0                50               0                0                0                
!               0                0                0                0                0                0                50               0                

1.56683417085427 0.882061679265666 -146.486184235057 0.0411447192756518 -14.891711455066 0.0387573607435926 -166.815058655405 0.0786444564132622 -106.011512480521 
                0.0411447193773714 -14.8917114131607 0.882580145169134 -146.277718416272 0.0784915654329502 -105.995862148824 0.0386637112939084 -166.687540336067 
                0.038757360628061 -166.815058653196 0.0784915654564342 -105.995862161042 0.882477235472562 -146.356742420042 0.0411070556300936 -14.6196104929257 
                0.0786444564793758 -106.011512493459 0.0386637113836455 -166.687540334687 0.0411070556020457 -14.6196105063333 0.882547784374991 -146.314049865248 
! Port Impedance50               0                0                0                0                0                0                0                
!               0                0                50               0                0                0                0                0                
!               0                0                0                0                50               0                0                0                
!               0                0                0                0                0                0                50               0                

1.57638190954774 0.879347672893975 -148.37698401069 0.0426181332446521 -17.5628738307013 0.039111454114264 -170.127894275364 0.0805087687034079 -108.526970136645 
                0.0426181333549879 -17.5628737910743 0.879879163932856 -148.16537597797 0.0803513339946018 -108.511039477106 0.0390154803290991 -169.997829315311 
                0.0391114539928857 -170.127894276094 0.0803513340186184 -108.511039490328 0.879769730231902 -148.246694131291 0.0425745639010898 -17.2973245323122 
                0.0805087687724105 -108.526970151727 0.0390154804234866 -169.997829311492 0.0425745638704656 -17.2973245451312 0.879846345520309 -148.200399323028 
! Port Impedance50               0                0                0                0                0                0                0                
!               0                0                50               0                0                0                0                0                
!               0                0                0                0                50               0                0                0                
!               0                0                0                0                0                0                50               0                

1.58592964824121 0.87651238032716 -150.269661819892 0.0441478416257107 -20.2510899193681 0.0395039469645588 -173.463117814451 0.0824222499906444 -111.032059374321 
                0.0441478417429048 -20.2510898831811 0.877056917740499 -150.054853235733 0.0822598953570426 -111.015836519073 0.0394055665712683 -173.330465439628 
                0.0395039468395921 -173.463117818249 0.0822598953810514 -111.015836533038 0.876941977521536 -150.138452095152 0.0440981043166344 -19.991771445535 
                0.0824222500610364 -111.032059391307 0.0394055666685424 -173.330465433351 0.0440981042839343 -19.9917714573849 0.877024762397913 -150.088492013821 
! Port Impedance50               0                0                0                0                0                0                0                
!               0                0                50               0                0                0                0                0                
!               0                0                0                0                50               0                0                0                
!               0                0                0                0                0                0                50               0                

1.59547738693467 0.873555645545852 -152.164557286559 0.0457357180162133 -22.9571679764953 0.0399355314529646 -176.821279082168 0.0843877252462632 -113.526723989966 
                0.0457357181384433 -22.9571679446208 0.874113325479253 -151.946484714969 0.0842200796757473 -113.510182014251 0.0398346571598111 -176.68599696435 
                0.0399355313265193 -176.821279088979 0.0842200796992637 -113.510182028694 0.873993841174856 -152.032357354162 0.0456795417193739 -22.7037558424007 
                0.0843877253166483 -113.526724008547 0.0398346572583219 -176.685996955728 0.0456795416851181 -22.7037558529903 0.874082869380702 -151.978671634113 
! Port Impedance50               0                0                0                0                0                0                0                
!               0                0                50               0                0                0                0                0                
!               0                0                0                0                50               0                0                0                
!               0                0                0                0                0                0                50               0                

1.60502512562814 0.870476759663435 -154.062030782491 0.0473836740896871 -25.6819122285995 0.0404069430482404 179.796953157907 0.086408320885821 -116.010998538955 
                0.0473836742150808 -25.6819122016353 0.871047754453447 -153.840626174655 0.0862350190021659 -115.994097404659 0.0403034823862724 179.934908663379 
                0.0404069429222758 179.796953148288 0.0862350190247655 -115.994097419314 0.870924632171399 -153.928771382452 0.04732077977303 -25.4340794895944 
                0.086408320954922 -116.010998558773 0.0403034824844856 179.934908674122 0.0473207797377542 -25.4340794987177 0.871019947413262 -153.871302168912 
! Port Impedance50               0                0                0                0                0                0                0                
!               0                0                50               0                0                0                0                0                
!               0                0                0                0                50               0                0                0                
!               0                0                0                0                0                0                50               0                

1.61457286432161 0.867274436974756 -155.962462376008 0.0490936591601728 -28.4261251760604 0.0409189634042784 176.390787936303 0.0884874800194176 -118.485016412356 
                0.0490936592868253 -28.4261251543448 0.867858995945923 -155.737653537189 0.0883081622456483 -118.4677048538  0.0408128185778557 176.531461534813 
                0.0409189632806016 176.390787924209 0.0883081622669694 -118.467704868408 0.867733085212208 -155.828075036838 0.0490237605873403 -28.183543641491 
                0.0884874800860889 -118.485016433012 0.0408128186743541 176.531461547362 0.0490237605515918 -28.1835436490223 0.867834700753082 -155.76676683933 
! Port Impedance50               0                0                0                0                0                0                0                
!               0                0                50               0                0                0                0                0                
!               0                0                0                0                50               0                0                0                
!               0                0                0                0                0                0                50               0                

1.62412060301508 0.863946790687732 -157.866250694975 0.0508676594203044 -31.1906103533253 0.0414724229121403 172.959309623752 0.090628977204442 -120.949017539969 
                0.0508676595462965 -31.1906103369556 0.864545240509252 -157.63796173159 0.0904432896300438 -120.931234862113 0.0413634906589399 173.102746810556 
                0.0414724227924049 172.959309609614 0.0904432896497907 -120.931234876426 0.864417334973096 -157.73066742488 0.050790464004067 -30.9529518162476 
                0.0906289772676802 -120.949017561039 0.0413634907524244 173.102746824528 0.0507904639683986 -30.9529518221362 0.864525233377458 -157.665466967256 
! Port Impedance50               0                0                0                0                0                0                0                
!               0                0                50               0                0                0                0                0                
!               0                0                0                0                50               0                0                0                
!               0                0                0                0                0                0                50               0                

1.63366834170854 0.860491308212022 -159.773811681938 0.0527076967193585 -33.9761755310248 0.0420682028328397 169.501476243219 0.09283693270393 -123.40335567997 
                0.0527076968427796 -33.9761755198767 0.861104052859093 -159.541963428121 0.092644526656749 -123.385033442961 0.0419563742944696 169.647723020254 
                0.0420682027185454 169.50147622754  0.0926445266746924 -123.385033456743 0.860974891908548 -159.63696466782 0.0526229064086975 -33.7431130002162 
                0.0928369327628831 -123.40335570102 0.04195637438376 169.64772303522  0.052622906373662 -33.7431130044807 0.861089024929624 -159.56782073489 
! Port Impedance50               0                0                0                0                0                0                0                
!               0                0                50               0                0                0                0                0                
!               0                0                0                0                50               0                0                0                
!               0                0                0                0                0                0                50               0                

1.64321608040201 0.856904825909185 -161.685577214583 0.054615826713973 -36.7836363370097 0.0427072369003392 166.016118508399 0.0951158262487959 -125.848505270037 
